
T18FC 000:567 SEGGER J-Link V4.24b Log File (0002ms, 0556ms total)
T18FC 000:567 DLL Compiled: Feb 22 2011 20:47:17 (0002ms, 0556ms total)
T18FC 000:567 Logging started @ 2011-08-19 15:20 (0003ms, 0556ms total)
T18FC 000:570 JLINK_SetWarnOutHandler(...) (0000ms, 0559ms total)
T18FC 000:570 JLINK_OpenEx(...)
Firmware: J-Link ARM V8 compiled Jan 31 2011 18:34:52
Hardware: V8.00
S/N: 805306163
Feature(s): RDI,FlashDL,FlashBP,JFlash,GDBFull  returns O.K. (0312ms, 0559ms total)
T18FC 000:882 JLINK_SetErrorOutHandler(...) (0000ms, 0871ms total)
T18FC 000:883 JLINK_ExecCommand("ProjectFile = "D:\Work Station\InterpreterForK0T\USART_test\JLinkSettings.ini"", ...)  returns 0x00 (0001ms, 0871ms total)
T18FC 000:891 JLINK_ExecCommand("DisableConnectionTimeout", ...)  returns 0x00 (0000ms, 0872ms total)
T18FC 000:892 JLINK_TIF_Select(JLINKARM_TIF_SWD)  returns 0x00 (0003ms, 0872ms total)
T18FC 000:895 JLINK_SetSpeed(2000) (0003ms, 0875ms total)
T18FC 000:898 JLINK_GetHardwareVersion()  returns 0x13880 (0000ms, 0878ms total)
T18FC 000:898 JLINK_GetDLLVersion()  returns 42402 (0001ms, 0878ms total)
T18FC 000:899 JLINK_GetFirmwareString(...) (0000ms, 0879ms total)
T18FC 000:911 JLINK_GetDLLVersion()  returns 42402 (0000ms, 0879ms total)
T18FC 000:911 JLINK_GetCompileDateTime() (0000ms, 0879ms total)
T18FC 000:915 JLINK_GetFirmwareString(...) (0001ms, 0879ms total)
T18FC 000:921 JLINK_GetHardwareVersion()  returns 0x13880 (0000ms, 0880ms total)
T18FC 000:939 JLINK_GetId() >0x108 TIF>Found SWD-DP with ID 0x1BA01477 >0x33 TIF> >0x33 TIF> >0x35 TIF> >0x33 TIF> >0x35 TIF> >0x33 TIF> >0x33 TIF> >0x35 TIF> >0x33 TIF> >0x33 TIF> >0x35 TIF> >0x33 TIF> >0x33 TIF> >0x35 TIF> >0x35 TIF> >0x35 TIF> >0x35 TIF> >0x33 TIF> >0x33 TIF> >0x33 TIF> >0x35 TIF> >0x35 TIF> >0x35 TIF> >0x35 TIF> >0x33 TIF> >0x33 TIF> >0x35 TIF> >0x35 TIF> >0x35 TIF> >0x33 TIF> >0x33 TIF>TPIU fitted. >0x35 TIF> >0x35 TIF> >0x35 TIF> >0x33 TIF> >0x33 TIF>ETM fitted. >0x35 TIF>
 >0x35 TIF> >0x35 TIF> >0x33 TIF> >0x33 TIF> >0x35 TIF> >0x35 TIF> >0x35 TIF> >0x33 TIF> >0x33 TIF>  FPUnit: 6 code (BP) slots and 2 literal slots >0x35 TIF> >0x35 TIF> >0x35 TIF> >0x33 TIF> >0x33 TIF> >0x35 TIF> >0x35 TIF> >0x35 TIF> >0x33 TIF> >0x33 TIF> >0x35 TIF> >0x35 TIF> >0x35 TIF> >0x33 TIF> >0x33 TIF>Found Cortex-M3 r1p1, Little endian. >0x33 TIF>  returns 0x1BA01477 (0089ms, 0880ms total)
T18FC 001:029 JLINK_GetDebugInfo(0x100) -- Value=0xE00FF003  returns 0x00 (0001ms, 0969ms total)
T18FC 001:037 JLINK_ReadMem (0xE00FFFF0, 0x0010 Bytes, ...) -- CPU is running -- CPU_ReadMem(16 bytes @ 0xE00FFFF0) -- Data:  0D 00 00 00 10 00 00 00 05 00 00 00 B1 00 00 00  returns 0x00 (0003ms, 0970ms total)
T18FC 001:040 JLINK_ReadMem (0xE00FFFD0, 0x0020 Bytes, ...) -- CPU is running -- CPU_ReadMem(32 bytes @ 0xE00FFFD0) -- Data:  00 00 00 00 00 00 00 00 00 00 00 00 00 00 00 00 ...  returns 0x00 (0002ms, 0973ms total)
T18FC 001:042 JLINK_ReadMem (0xE00FF000, 0x0018 Bytes, ...) -- CPU is running -- CPU_ReadMem(24 bytes @ 0xE00FF000) -- Data:  03 F0 F0 FF 03 20 F0 FF 03 30 F0 FF 03 10 F0 FF ...  returns 0x00 (0001ms, 0975ms total)
T18FC 001:043 JLINK_ReadMemU32(0xE000ED00, 0x0001 Items, ...) -- CPU is running -- CPU_ReadMem(4 bytes @ 0xE000ED00) -- Data:  31 C2 1F 41  returns 0x01 (0001ms, 0976ms total)
T18FC 001:044 JLINK_SetResetType(JLINKARM_RESET_TYPE_NORMAL)  returns JLINKARM_RESET_TYPE_NORMAL (0000ms, 0977ms total)
T18FC 001:044 JLINK_Reset() >0x108 TIF>Found SWD-DP with ID 0x1BA01477 >0x33 TIF> >0x33 TIF> >0x35 TIF> >0x33 TIF> >0x35 TIF> >0x33 TIF> >0x33 TIF> >0x35 TIF> >0x33 TIF> >0x33 TIF> >0x35 TIF> >0x33 TIF> >0x33 TIF> >0x35 TIF> >0x35 TIF> >0x35 TIF> >0x35 TIF> >0x33 TIF> >0x33 TIF> >0x33 TIF> >0x35 TIF> >0x35 TIF> >0x35 TIF> >0x35 TIF> >0x33 TIF> >0x33 TIF> >0x35 TIF> >0x35 TIF> >0x35 TIF> >0x33 TIF> >0x33 TIF>TPIU fitted. >0x35 TIF> >0x35 TIF> >0x35 TIF> >0x33 TIF> >0x33 TIF>ETM fitted. >0x35 TIF>
 >0x35 TIF> >0x35 TIF> >0x33 TIF> >0x33 TIF> >0x35 TIF> >0x35 TIF> >0x35 TIF> >0x33 TIF> >0x33 TIF>  FPUnit: 6 code (BP) slots and 2 literal slots >0x35 TIF> >0x35 TIF> >0x35 TIF> >0x33 TIF> >0x33 TIF> >0x35 TIF> >0x35 TIF> >0x35 TIF> >0x33 TIF> >0x33 TIF> >0x35 TIF> >0x35 TIF> >0x35 TIF> >0x33 TIF> >0x33 TIF>Found Cortex-M3 r1p1, Little endian. (0111ms, 0977ms total)
T18FC 001:155 JLINK_ExecCommand("Device = STM32F103ZE", ...)
                JLINK_ExecCommand("map ram 0x20000000 - 0x2000FFFF", ...)  returns 0x00 (0000ms, 0000ms total)
                JLINK_AddMirrorAreaEx(Addr = 0x00000000, Size = 0x00000000) (0000ms, 0000ms total)
                returns 0x00 (0002ms, 1088ms total)
T18FC 001:157 JLINK_Halt() >0x108 TIF>Found SWD-DP with ID 0x1BA01477 >0x33 TIF> >0x33 TIF> >0x35 TIF> >0x33 TIF> >0x35 TIF> >0x33 TIF> >0x33 TIF> >0x35 TIF> >0x33 TIF> >0x33 TIF> >0x35 TIF> >0x33 TIF> >0x33 TIF> >0x35 TIF> >0x35 TIF> >0x35 TIF> >0x35 TIF> >0x33 TIF> >0x33 TIF> >0x33 TIF> >0x35 TIF> >0x35 TIF> >0x35 TIF> >0x35 TIF> >0x33 TIF> >0x33 TIF> >0x35 TIF> >0x35 TIF> >0x35 TIF> >0x33 TIF> >0x33 TIF>TPIU fitted. >0x35 TIF> >0x35 TIF> >0x35 TIF> >0x33 TIF> >0x33 TIF>ETM fitted. >0x35 TIF>
 >0x35 TIF> >0x35 TIF> >0x33 TIF> >0x33 TIF> >0x35 TIF> >0x35 TIF> >0x35 TIF> >0x33 TIF> >0x33 TIF>  FPUnit: 6 code (BP) slots and 2 literal slots >0x35 TIF> >0x35 TIF> >0x35 TIF> >0x33 TIF> >0x33 TIF> >0x35 TIF> >0x35 TIF> >0x35 TIF> >0x33 TIF> >0x33 TIF> >0x35 TIF> >0x35 TIF> >0x35 TIF> >0x33 TIF> >0x33 TIF>Found Cortex-M3 r1p1, Little endian.  returns 0x00 (0082ms, 1090ms total)
T18FC 001:239 JLINK_IsHalted()  returns TRUE (0000ms, 1172ms total)
T18FC 001:239 JLINK_ReadMemU32(0xE000EDF0, 0x0001 Items, ...) -- CPU_ReadMem(4 bytes @ 0xE000EDF0) -- Data:  03 00 03 00  returns 0x01 (0001ms, 1172ms total)
T18FC 001:240 JLINK_WriteU32(0xE000EDF0, 0xA05F0003) -- CPU_WriteMem(4 bytes @ 0xE000EDF0)  returns 0x00 (0001ms, 1173ms total)
T18FC 001:241 JLINK_WriteU32(0xE000EDFC, 0x01000000) -- CPU_WriteMem(4 bytes @ 0xE000EDFC)  returns 0x00 (0001ms, 1174ms total)
T18FC 001:242 JLINK_ReadMemU32(0xE0002000, 0x0001 Items, ...) -- CPU_ReadMem(4 bytes @ 0xE0002000) -- Data:  60 02 00 00  returns 0x01 (0001ms, 1175ms total)
T18FC 001:243 JLINK_ReadMemU32(0xE0001000, 0x0001 Items, ...) -- CPU_ReadMem(4 bytes @ 0xE0001000) -- Data:  01 00 00 40  returns 0x01 (0001ms, 1176ms total)
T18FC 001:264 JLINK_GetHWStatus(...)  returns 0x00 (0001ms, 1177ms total)
T18FC 001:279 JLINK_GetNumBPUnits(Type = 0xFFFFFF00)  returns 0x06 (0001ms, 1178ms total)
T18FC 001:280 JLINK_GetNumBPUnits(Type = 0xF0)  returns 0x800 (0000ms, 1179ms total)
T18FC 001:280 JLINK_GetNumWPUnits()  returns 0x00 (0000ms, 1179ms total)
T18FC 001:293 JLINK_GetSpeed()  returns 0x7D0 (0000ms, 1179ms total)
T18FC 001:311 JLINK_ReadMemU32(0xE000E004, 0x0001 Items, ...) -- CPU_ReadMem(4 bytes @ 0xE000E004) -- Data:  01 00 00 00  returns 0x01 (0001ms, 1179ms total)
T18FC 001:312 JLINK_WriteMem(0xE0001000, 0x001C Bytes, ...) -- Data:  01 00 00 00 00 00 00 00 00 00 00 00 00 00 00 00 ... -- CPU_WriteMem(28 bytes @ 0xE0001000)  returns 0x1C (0002ms, 1180ms total)
T18FC 001:314 JLINK_ReadMem (0xE0001000, 0x001C Bytes, ...) -- CPU_ReadMem(28 bytes @ 0xE0001000) -- Data:  01 00 00 40 00 00 00 00 00 00 00 00 00 00 00 00 ...  returns 0x00 (0002ms, 1182ms total)
T18FC 001:316 JLINK_Halt()  returns 0x00 (0000ms, 1184ms total)
T18FC 001:316 JLINK_IsHalted()  returns TRUE (0000ms, 1184ms total)
T18FC 001:327 JLINK_WriteMem(0x20000000, 0x0164 Bytes, ...) -- Data:  00 BE 0A E0 0D 78 2D 06 68 40 08 24 40 00 00 D3 ... -- CPU_WriteMem(356 bytes @ 0x20000000)  returns 0x164 (0005ms, 1184ms total)
T18FC 001:333 JLINK_WriteReg(R0, 0x08000000)  returns 0x00 (0000ms, 1189ms total)
T18FC 001:333 JLINK_WriteReg(R1, 0x007A1200)  returns 0x00 (0000ms, 1189ms total)
T18FC 001:333 JLINK_WriteReg(R2, 0x00000001)  returns 0x00 (0000ms, 1189ms total)
T18FC 001:333 JLINK_WriteReg(R3, 0x00000000)  returns 0x00 (0000ms, 1189ms total)
T18FC 001:333 JLINK_WriteReg(R4, 0x00000000)  returns 0x00 (0000ms, 1189ms total)
T18FC 001:333 JLINK_WriteReg(R5, 0x00000000)  returns 0x00 (0000ms, 1189ms total)
T18FC 001:333 JLINK_WriteReg(R6, 0x00000000)  returns 0x00 (0000ms, 1189ms total)
T18FC 001:333 JLINK_WriteReg(R7, 0x00000000)  returns 0x00 (0000ms, 1189ms total)
T18FC 001:333 JLINK_WriteReg(R8, 0x00000000)  returns 0x00 (0000ms, 1189ms total)
T18FC 001:333 JLINK_WriteReg(R9, 0x20000160)  returns 0x00 (0000ms, 1189ms total)
T18FC 001:333 JLINK_WriteReg(R10, 0x00000000)  returns 0x00 (0001ms, 1189ms total)
T18FC 001:334 JLINK_WriteReg(R11, 0x00000000)  returns 0x00 (0000ms, 1190ms total)
T18FC 001:334 JLINK_WriteReg(R12, 0x00000000)  returns 0x00 (0000ms, 1190ms total)
T18FC 001:334 JLINK_WriteReg(R13, 0x20000800)  returns 0x00 (0000ms, 1190ms total)
T18FC 001:334 JLINK_WriteReg(R14, 0x20000001)  returns 0x00 (0000ms, 1190ms total)
T18FC 001:334 JLINK_WriteReg(R15, 0x20000038)  returns 0x00 (0000ms, 1190ms total)
T18FC 001:334 JLINK_WriteReg(XPSR, 0x01000000)  returns 0x00 (0000ms, 1190ms total)
T18FC 001:334 JLINK_WriteReg(MSP, 0x20000800)  returns 0x00 (0000ms, 1190ms total)
T18FC 001:334 JLINK_WriteReg(PSP, 0x20000800)  returns 0x00 (0000ms, 1190ms total)
T18FC 001:334 JLINK_WriteReg(CFBP, 0x00000000)  returns 0x00 (0001ms, 1190ms total)
T18FC 001:335 JLINK_SetBPEx(Addr = 0x20000000, Type = 0xFFFFFFF2) -- CPU_ReadMem(2 bytes @ 0x20000000)  returns 0x00000001 (0001ms, 1191ms total)
T18FC 001:336 JLINK_Go() -- CPU_WriteMem(2 bytes @ 0x20000000) -- CPU_WriteMem(4 bytes @ 0xE0002008) -- CPU_WriteMem(4 bytes @ 0xE000200C) -- CPU_WriteMem(4 bytes @ 0xE0002010) -- CPU_WriteMem(4 bytes @ 0xE0002014) -- CPU_WriteMem(4 bytes @ 0xE0002018) -- CPU_WriteMem(4 bytes @ 0xE000201C) (0010ms, 1192ms total)
T18FC 001:346 JLINK_IsHalted() -- CPU_ReadMem(2 bytes @ 0x20000000)  returns TRUE (0010ms, 1202ms total)
T18FC 001:356 JLINK_ReadReg(R15)  returns 0x20000000 (0000ms, 1202ms total)
T18FC 001:356 JLINK_ClrBPEx(BPHandle = 0x00000001)  returns 0x00 (0000ms, 1202ms total)
T18FC 001:356 JLINK_ReadReg(R0)  returns 0x00000000 (0001ms, 1202ms total)
T18FC 001:357 JLINK_WriteReg(R0, 0x08000000)  returns 0x00 (0000ms, 1203ms total)
T18FC 001:357 JLINK_WriteReg(R1, 0x007A1200)  returns 0x00 (0000ms, 1203ms total)
T18FC 001:357 JLINK_WriteReg(R2, 0x00000001)  returns 0x00 (0000ms, 1203ms total)
T18FC 001:357 JLINK_WriteReg(R3, 0x00000000)  returns 0x00 (0000ms, 1203ms total)
T18FC 001:357 JLINK_WriteReg(R4, 0x00000000)  returns 0x00 (0000ms, 1203ms total)
T18FC 001:357 JLINK_WriteReg(R5, 0x00000000)  returns 0x00 (0000ms, 1203ms total)
T18FC 001:357 JLINK_WriteReg(R6, 0x00000000)  returns 0x00 (0001ms, 1203ms total)
T18FC 001:358 JLINK_WriteReg(R7, 0x00000000)  returns 0x00 (0000ms, 1204ms total)
T18FC 001:358 JLINK_WriteReg(R8, 0x00000000)  returns 0x00 (0000ms, 1204ms total)
T18FC 001:358 JLINK_WriteReg(R9, 0x20000160)  returns 0x00 (0000ms, 1204ms total)
T18FC 001:358 JLINK_WriteReg(R10, 0x00000000)  returns 0x00 (0000ms, 1204ms total)
T18FC 001:358 JLINK_WriteReg(R11, 0x00000000)  returns 0x00 (0000ms, 1204ms total)
T18FC 001:358 JLINK_WriteReg(R12, 0x00000000)  returns 0x00 (0000ms, 1204ms total)
T18FC 001:358 JLINK_WriteReg(R13, 0x20000800)  returns 0x00 (0000ms, 1204ms total)
T18FC 001:358 JLINK_WriteReg(R14, 0x20000001)  returns 0x00 (0000ms, 1204ms total)
T18FC 001:358 JLINK_WriteReg(R15, 0x2000007C)  returns 0x00 (0000ms, 1204ms total)
T18FC 001:358 JLINK_WriteReg(XPSR, 0x01000000)  returns 0x00 (0000ms, 1204ms total)
T18FC 001:358 JLINK_WriteReg(MSP, 0x20000800)  returns 0x00 (0000ms, 1204ms total)
T18FC 001:358 JLINK_WriteReg(PSP, 0x20000800)  returns 0x00 (0000ms, 1204ms total)
T18FC 001:358 JLINK_WriteReg(CFBP, 0x00000000)  returns 0x00 (0000ms, 1204ms total)
T18FC 001:359 JLINK_SetBPEx(Addr = 0x20000000, Type = 0xFFFFFFF2)  returns 0x00000002 (0000ms, 1205ms total)
T18FC 001:359 JLINK_Go() -- CPU_WriteMem(4 bytes @ 0xE0002008) -- CPU_WriteMem(4 bytes @ 0xE000200C) -- CPU_WriteMem(4 bytes @ 0xE0002010) -- CPU_WriteMem(4 bytes @ 0xE0002014) -- CPU_WriteMem(4 bytes @ 0xE0002018) -- CPU_WriteMem(4 bytes @ 0xE000201C) (0009ms, 1205ms total)
T18FC 001:368 JLINK_IsHalted()  returns FALSE (0001ms, 1214ms total)
T18FC 001:419 JLINK_IsHalted() -- CPU_ReadMem(2 bytes @ 0x20000000)  returns TRUE (0010ms, 1214ms total)
T18FC 001:429 JLINK_ReadReg(R15)  returns 0x20000000 (0001ms, 1214ms total)
T18FC 001:430 JLINK_ClrBPEx(BPHandle = 0x00000002)  returns 0x00 (0000ms, 1215ms total)
T18FC 001:430 JLINK_ReadReg(R0)  returns 0x00000000 (0000ms, 1215ms total)
T18FC 001:482 JLINK_WriteReg(R0, 0x00000001)  returns 0x00 (0001ms, 1215ms total)
T18FC 001:483 JLINK_WriteReg(R1, 0x007A1200)  returns 0x00 (0000ms, 1216ms total)
T18FC 001:483 JLINK_WriteReg(R2, 0x00000001)  returns 0x00 (0000ms, 1216ms total)
T18FC 001:483 JLINK_WriteReg(R3, 0x00000000)  returns 0x00 (0000ms, 1216ms total)
T18FC 001:483 JLINK_WriteReg(R4, 0x00000000)  returns 0x00 (0000ms, 1216ms total)
T18FC 001:483 JLINK_WriteReg(R5, 0x00000000)  returns 0x00 (0001ms, 1216ms total)
T18FC 001:484 JLINK_WriteReg(R6, 0x00000000)  returns 0x00 (0000ms, 1217ms total)
T18FC 001:484 JLINK_WriteReg(R7, 0x00000000)  returns 0x00 (0000ms, 1217ms total)
T18FC 001:484 JLINK_WriteReg(R8, 0x00000000)  returns 0x00 (0000ms, 1217ms total)
T18FC 001:484 JLINK_WriteReg(R9, 0x20000160)  returns 0x00 (0000ms, 1217ms total)
T18FC 001:484 JLINK_WriteReg(R10, 0x00000000)  returns 0x00 (0000ms, 1217ms total)
T18FC 001:485 JLINK_WriteReg(R11, 0x00000000)  returns 0x00 (0000ms, 1218ms total)
T18FC 001:485 JLINK_WriteReg(R12, 0x00000000)  returns 0x00 (0000ms, 1218ms total)
T18FC 001:485 JLINK_WriteReg(R13, 0x20000800)  returns 0x00 (0000ms, 1218ms total)
T18FC 001:485 JLINK_WriteReg(R14, 0x20000001)  returns 0x00 (0000ms, 1218ms total)
T18FC 001:485 JLINK_WriteReg(R15, 0x2000006A)  returns 0x00 (0000ms, 1218ms total)
T18FC 001:485 JLINK_WriteReg(XPSR, 0x01000000)  returns 0x00 (0001ms, 1218ms total)
T18FC 001:486 JLINK_WriteReg(MSP, 0x20000800)  returns 0x00 (0000ms, 1219ms total)
T18FC 001:486 JLINK_WriteReg(PSP, 0x20000800)  returns 0x00 (0000ms, 1219ms total)
T18FC 001:486 JLINK_WriteReg(CFBP, 0x00000000)  returns 0x00 (0000ms, 1219ms total)
T18FC 001:486 JLINK_SetBPEx(Addr = 0x20000000, Type = 0xFFFFFFF2)  returns 0x00000003 (0000ms, 1219ms total)
T18FC 001:486 JLINK_Go() -- CPU_WriteMem(4 bytes @ 0xE0002008) -- CPU_WriteMem(4 bytes @ 0xE000200C) -- CPU_WriteMem(4 bytes @ 0xE0002010) -- CPU_WriteMem(4 bytes @ 0xE0002014) -- CPU_WriteMem(4 bytes @ 0xE0002018) -- CPU_WriteMem(4 bytes @ 0xE000201C) (0009ms, 1219ms total)
T18FC 001:495 JLINK_IsHalted() -- CPU_ReadMem(2 bytes @ 0x20000000)  returns TRUE (0011ms, 1228ms total)
T18FC 001:506 JLINK_ReadReg(R15)  returns 0x20000000 (0000ms, 1228ms total)
T18FC 001:507 JLINK_ClrBPEx(BPHandle = 0x00000003)  returns 0x00 (0000ms, 1229ms total)
T18FC 001:507 JLINK_ReadReg(R0)  returns 0x00000000 (0000ms, 1229ms total)
T18FC 001:517 JLINK_WriteMem(0x20000000, 0x0164 Bytes, ...) -- Data:  00 BE 0A E0 0D 78 2D 06 68 40 08 24 40 00 00 D3 ... -- CPU_WriteMem(356 bytes @ 0x20000000)  returns 0x164 (0005ms, 1229ms total)
T18FC 001:522 JLINK_WriteReg(R0, 0x08000000)  returns 0x00 (0000ms, 1234ms total)
T18FC 001:523 JLINK_WriteReg(R1, 0x007A1200)  returns 0x00 (0000ms, 1235ms total)
T18FC 001:523 JLINK_WriteReg(R2, 0x00000002)  returns 0x00 (0000ms, 1235ms total)
T18FC 001:523 JLINK_WriteReg(R3, 0x00000000)  returns 0x00 (0000ms, 1235ms total)
T18FC 001:523 JLINK_WriteReg(R4, 0x00000000)  returns 0x00 (0000ms, 1235ms total)
T18FC 001:523 JLINK_WriteReg(R5, 0x00000000)  returns 0x00 (0000ms, 1235ms total)
T18FC 001:523 JLINK_WriteReg(R6, 0x00000000)  returns 0x00 (0000ms, 1235ms total)
T18FC 001:523 JLINK_WriteReg(R7, 0x00000000)  returns 0x00 (0000ms, 1235ms total)
T18FC 001:523 JLINK_WriteReg(R8, 0x00000000)  returns 0x00 (0000ms, 1235ms total)
T18FC 001:523 JLINK_WriteReg(R9, 0x20000160)  returns 0x00 (0001ms, 1235ms total)
T18FC 001:524 JLINK_WriteReg(R10, 0x00000000)  returns 0x00 (0000ms, 1236ms total)
T18FC 001:524 JLINK_WriteReg(R11, 0x00000000)  returns 0x00 (0000ms, 1236ms total)
T18FC 001:524 JLINK_WriteReg(R12, 0x00000000)  returns 0x00 (0000ms, 1236ms total)
T18FC 001:524 JLINK_WriteReg(R13, 0x20000800)  returns 0x00 (0000ms, 1236ms total)
T18FC 001:524 JLINK_WriteReg(R14, 0x20000001)  returns 0x00 (0000ms, 1236ms total)
T18FC 001:524 JLINK_WriteReg(R15, 0x20000038)  returns 0x00 (0000ms, 1236ms total)
T18FC 001:524 JLINK_WriteReg(XPSR, 0x01000000)  returns 0x00 (0000ms, 1236ms total)
T18FC 001:524 JLINK_WriteReg(MSP, 0x20000800)  returns 0x00 (0000ms, 1236ms total)
T18FC 001:525 JLINK_WriteReg(PSP, 0x20000800)  returns 0x00 (0000ms, 1237ms total)
T18FC 001:525 JLINK_WriteReg(CFBP, 0x00000000)  returns 0x00 (0000ms, 1237ms total)
T18FC 001:525 JLINK_SetBPEx(Addr = 0x20000000, Type = 0xFFFFFFF2) -- CPU_ReadMem(2 bytes @ 0x20000000)  returns 0x00000004 (0001ms, 1237ms total)
T18FC 001:526 JLINK_Go() -- CPU_WriteMem(2 bytes @ 0x20000000) -- CPU_WriteMem(4 bytes @ 0xE0002008) -- CPU_WriteMem(4 bytes @ 0xE000200C) -- CPU_WriteMem(4 bytes @ 0xE0002010) -- CPU_WriteMem(4 bytes @ 0xE0002014) -- CPU_WriteMem(4 bytes @ 0xE0002018) -- CPU_WriteMem(4 bytes @ 0xE000201C) (0010ms, 1238ms total)
T18FC 001:536 JLINK_IsHalted() -- CPU_ReadMem(2 bytes @ 0x20000000)  returns TRUE (0010ms, 1248ms total)
T18FC 001:546 JLINK_ReadReg(R15)  returns 0x20000000 (0000ms, 1248ms total)
T18FC 001:546 JLINK_ClrBPEx(BPHandle = 0x00000004)  returns 0x00 (0001ms, 1248ms total)
T18FC 001:547 JLINK_ReadReg(R0)  returns 0x00000000 (0000ms, 1249ms total)
T18FC 001:547 JLINK_WriteMem(0x20000164, 0x0400 Bytes, ...) -- Data:  28 E5 00 20 01 01 00 08 FF 19 00 08 F5 18 00 08 ... -- CPU_WriteMem(1024 bytes @ 0x20000164)  returns 0x400 (0012ms, 1249ms total)
T18FC 001:559 JLINK_WriteReg(R0, 0x08000000)  returns 0x00 (0000ms, 1261ms total)
T18FC 001:559 JLINK_WriteReg(R1, 0x00000400)  returns 0x00 (0001ms, 1261ms total)
T18FC 001:560 JLINK_WriteReg(R2, 0x20000164)  returns 0x00 (0000ms, 1262ms total)
T18FC 001:560 JLINK_WriteReg(R3, 0x00000000)  returns 0x00 (0000ms, 1262ms total)
T18FC 001:560 JLINK_WriteReg(R4, 0x00000000)  returns 0x00 (0000ms, 1262ms total)
T18FC 001:560 JLINK_WriteReg(R5, 0x00000000)  returns 0x00 (0000ms, 1262ms total)
T18FC 001:560 JLINK_WriteReg(R6, 0x00000000)  returns 0x00 (0000ms, 1262ms total)
T18FC 001:560 JLINK_WriteReg(R7, 0x00000000)  returns 0x00 (0000ms, 1262ms total)
T18FC 001:560 JLINK_WriteReg(R8, 0x00000000)  returns 0x00 (0000ms, 1262ms total)
T18FC 001:560 JLINK_WriteReg(R9, 0x20000160)  returns 0x00 (0000ms, 1262ms total)
T18FC 001:561 JLINK_WriteReg(R10, 0x00000000)  returns 0x00 (0000ms, 1263ms total)
T18FC 001:561 JLINK_WriteReg(R11, 0x00000000)  returns 0x00 (0000ms, 1263ms total)
T18FC 001:561 JLINK_WriteReg(R12, 0x00000000)  returns 0x00 (0000ms, 1263ms total)
T18FC 001:561 JLINK_WriteReg(R13, 0x20000800)  returns 0x00 (0000ms, 1263ms total)
T18FC 001:561 JLINK_WriteReg(R14, 0x20000001)  returns 0x00 (0000ms, 1263ms total)
T18FC 001:561 JLINK_WriteReg(R15, 0x200000F4)  returns 0x00 (0000ms, 1263ms total)
T18FC 001:561 JLINK_WriteReg(XPSR, 0x01000000)  returns 0x00 (0000ms, 1263ms total)
T18FC 001:561 JLINK_WriteReg(MSP, 0x20000800)  returns 0x00 (0000ms, 1263ms total)
T18FC 001:561 JLINK_WriteReg(PSP, 0x20000800)  returns 0x00 (0001ms, 1263ms total)
T18FC 001:562 JLINK_WriteReg(CFBP, 0x00000000)  returns 0x00 (0000ms, 1264ms total)
T18FC 001:562 JLINK_SetBPEx(Addr = 0x20000000, Type = 0xFFFFFFF2)  returns 0x00000005 (0000ms, 1264ms total)
T18FC 001:562 JLINK_Go() -- CPU_WriteMem(4 bytes @ 0xE0002008) -- CPU_WriteMem(4 bytes @ 0xE000200C) -- CPU_WriteMem(4 bytes @ 0xE0002010) -- CPU_WriteMem(4 bytes @ 0xE0002014) -- CPU_WriteMem(4 bytes @ 0xE0002018) -- CPU_WriteMem(4 bytes @ 0xE000201C) (0009ms, 1264ms total)
T18FC 001:571 JLINK_IsHalted()  returns FALSE (0001ms, 1273ms total)
T18FC 001:622 JLINK_IsHalted() -- CPU_ReadMem(2 bytes @ 0x20000000)  returns TRUE (0010ms, 1273ms total)
T18FC 001:632 JLINK_ReadReg(R15)  returns 0x20000000 (0000ms, 1273ms total)
T18FC 001:633 JLINK_ClrBPEx(BPHandle = 0x00000005)  returns 0x00 (0000ms, 1274ms total)
T18FC 001:633 JLINK_ReadReg(R0)  returns 0x00000000 (0000ms, 1274ms total)
T18FC 001:634 JLINK_WriteMem(0x20000164, 0x0400 Bytes, ...) -- Data:  88 46 22 46 2B 46 10 46 19 46 00 F0 EB F9 04 46 ... -- CPU_WriteMem(1024 bytes @ 0x20000164)  returns 0x400 (0012ms, 1274ms total)
T18FC 001:647 JLINK_WriteReg(R0, 0x08000400)  returns 0x00 (0000ms, 1287ms total)
T18FC 001:647 JLINK_WriteReg(R1, 0x00000400)  returns 0x00 (0000ms, 1287ms total)
T18FC 001:647 JLINK_WriteReg(R2, 0x20000164)  returns 0x00 (0001ms, 1287ms total)
T18FC 001:648 JLINK_WriteReg(R3, 0x00000000)  returns 0x00 (0000ms, 1288ms total)
T18FC 001:648 JLINK_WriteReg(R4, 0x00000000)  returns 0x00 (0000ms, 1288ms total)
T18FC 001:648 JLINK_WriteReg(R5, 0x00000000)  returns 0x00 (0001ms, 1288ms total)
T18FC 001:649 JLINK_WriteReg(R6, 0x00000000)  returns 0x00 (0000ms, 1289ms total)
T18FC 001:649 JLINK_WriteReg(R7, 0x00000000)  returns 0x00 (0000ms, 1289ms total)
T18FC 001:649 JLINK_WriteReg(R8, 0x00000000)  returns 0x00 (0000ms, 1289ms total)
T18FC 001:649 JLINK_WriteReg(R9, 0x20000160)  returns 0x00 (0000ms, 1289ms total)
T18FC 001:649 JLINK_WriteReg(R10, 0x00000000)  returns 0x00 (0000ms, 1289ms total)
T18FC 001:650 JLINK_WriteReg(R11, 0x00000000)  returns 0x00 (0000ms, 1290ms total)
T18FC 001:650 JLINK_WriteReg(R12, 0x00000000)  returns 0x00 (0000ms, 1290ms total)
T18FC 001:650 JLINK_WriteReg(R13, 0x20000800)  returns 0x00 (0000ms, 1290ms total)
T18FC 001:650 JLINK_WriteReg(R14, 0x20000001)  returns 0x00 (0000ms, 1290ms total)
T18FC 001:650 JLINK_WriteReg(R15, 0x200000F4)  returns 0x00 (0000ms, 1290ms total)
T18FC 001:650 JLINK_WriteReg(XPSR, 0x01000000)  returns 0x00 (0001ms, 1290ms total)
T18FC 001:651 JLINK_WriteReg(MSP, 0x20000800)  returns 0x00 (0000ms, 1291ms total)
T18FC 001:651 JLINK_WriteReg(PSP, 0x20000800)  returns 0x00 (0000ms, 1291ms total)
T18FC 001:651 JLINK_WriteReg(CFBP, 0x00000000)  returns 0x00 (0000ms, 1291ms total)
T18FC 001:651 JLINK_SetBPEx(Addr = 0x20000000, Type = 0xFFFFFFF2)  returns 0x00000006 (0000ms, 1291ms total)
T18FC 001:651 JLINK_Go() -- CPU_WriteMem(4 bytes @ 0xE0002008) -- CPU_WriteMem(4 bytes @ 0xE000200C) -- CPU_WriteMem(4 bytes @ 0xE0002010) -- CPU_WriteMem(4 bytes @ 0xE0002014) -- CPU_WriteMem(4 bytes @ 0xE0002018) -- CPU_WriteMem(4 bytes @ 0xE000201C) (0010ms, 1291ms total)
T18FC 001:661 JLINK_IsHalted()  returns FALSE (0001ms, 1301ms total)
T18FC 001:712 JLINK_IsHalted() -- CPU_ReadMem(2 bytes @ 0x20000000)  returns TRUE (0011ms, 1301ms total)
T18FC 001:723 JLINK_ReadReg(R15)  returns 0x20000000 (0000ms, 1301ms total)
T18FC 001:724 JLINK_ClrBPEx(BPHandle = 0x00000006)  returns 0x00 (0000ms, 1302ms total)
T18FC 001:724 JLINK_ReadReg(R0)  returns 0x00000000 (0000ms, 1302ms total)
T18FC 001:725 JLINK_WriteMem(0x20000164, 0x0400 Bytes, ...) -- Data:  05 03 02 D0 52 EA 01 03 04 D1 00 20 01 46 03 B0 ... -- CPU_WriteMem(1024 bytes @ 0x20000164)  returns 0x400 (0012ms, 1302ms total)
T18FC 001:737 JLINK_WriteReg(R0, 0x08000800)  returns 0x00 (0001ms, 1314ms total)
T18FC 001:738 JLINK_WriteReg(R1, 0x00000400)  returns 0x00 (0000ms, 1315ms total)
T18FC 001:738 JLINK_WriteReg(R2, 0x20000164)  returns 0x00 (0000ms, 1315ms total)
T18FC 001:738 JLINK_WriteReg(R3, 0x00000000)  returns 0x00 (0000ms, 1315ms total)
T18FC 001:738 JLINK_WriteReg(R4, 0x00000000)  returns 0x00 (0000ms, 1315ms total)
T18FC 001:738 JLINK_WriteReg(R5, 0x00000000)  returns 0x00 (0000ms, 1315ms total)
T18FC 001:739 JLINK_WriteReg(R6, 0x00000000)  returns 0x00 (0000ms, 1316ms total)
T18FC 001:739 JLINK_WriteReg(R7, 0x00000000)  returns 0x00 (0000ms, 1316ms total)
T18FC 001:739 JLINK_WriteReg(R8, 0x00000000)  returns 0x00 (0000ms, 1316ms total)
T18FC 001:739 JLINK_WriteReg(R9, 0x20000160)  returns 0x00 (0000ms, 1316ms total)
T18FC 001:739 JLINK_WriteReg(R10, 0x00000000)  returns 0x00 (0000ms, 1316ms total)
T18FC 001:739 JLINK_WriteReg(R11, 0x00000000)  returns 0x00 (0001ms, 1316ms total)
T18FC 001:740 JLINK_WriteReg(R12, 0x00000000)  returns 0x00 (0001ms, 1317ms total)
T18FC 001:741 JLINK_WriteReg(R13, 0x20000800)  returns 0x00 (0000ms, 1318ms total)
T18FC 001:741 JLINK_WriteReg(R14, 0x20000001)  returns 0x00 (0000ms, 1318ms total)
T18FC 001:741 JLINK_WriteReg(R15, 0x200000F4)  returns 0x00 (0000ms, 1318ms total)
T18FC 001:741 JLINK_WriteReg(XPSR, 0x01000000)  returns 0x00 (0001ms, 1318ms total)
T18FC 001:742 JLINK_WriteReg(MSP, 0x20000800)  returns 0x00 (0000ms, 1319ms total)
T18FC 001:742 JLINK_WriteReg(PSP, 0x20000800)  returns 0x00 (0000ms, 1319ms total)
T18FC 001:742 JLINK_WriteReg(CFBP, 0x00000000)  returns 0x00 (0000ms, 1319ms total)
T18FC 001:742 JLINK_SetBPEx(Addr = 0x20000000, Type = 0xFFFFFFF2)  returns 0x00000007 (0000ms, 1319ms total)
T18FC 001:742 JLINK_Go() -- CPU_WriteMem(4 bytes @ 0xE0002008) -- CPU_WriteMem(4 bytes @ 0xE000200C) -- CPU_WriteMem(4 bytes @ 0xE0002010) -- CPU_WriteMem(4 bytes @ 0xE0002014) -- CPU_WriteMem(4 bytes @ 0xE0002018) -- CPU_WriteMem(4 bytes @ 0xE000201C) (0018ms, 1319ms total)
T18FC 001:760 JLINK_IsHalted()  returns FALSE (0002ms, 1337ms total)
T18FC 001:812 JLINK_IsHalted() -- CPU_ReadMem(2 bytes @ 0x20000000)  returns TRUE (0010ms, 1337ms total)
T18FC 001:822 JLINK_ReadReg(R15)  returns 0x20000000 (0000ms, 1337ms total)
T18FC 001:822 JLINK_ClrBPEx(BPHandle = 0x00000007)  returns 0x00 (0001ms, 1337ms total)
T18FC 001:823 JLINK_ReadReg(R0)  returns 0x00000000 (0000ms, 1338ms total)
T18FC 001:824 JLINK_WriteMem(0x20000164, 0x0400 Bytes, ...) -- Data:  B0 FA 80 F2 20 32 92 46 FF F7 6E FF 03 9A 07 46 ... -- CPU_WriteMem(1024 bytes @ 0x20000164)  returns 0x400 (0011ms, 1338ms total)
T18FC 001:835 JLINK_WriteReg(R0, 0x08000C00)  returns 0x00 (0000ms, 1349ms total)
T18FC 001:836 JLINK_WriteReg(R1, 0x00000400)  returns 0x00 (0000ms, 1350ms total)
T18FC 001:836 JLINK_WriteReg(R2, 0x20000164)  returns 0x00 (0000ms, 1350ms total)
T18FC 001:836 JLINK_WriteReg(R3, 0x00000000)  returns 0x00 (0000ms, 1350ms total)
T18FC 001:836 JLINK_WriteReg(R4, 0x00000000)  returns 0x00 (0000ms, 1350ms total)
T18FC 001:836 JLINK_WriteReg(R5, 0x00000000)  returns 0x00 (0000ms, 1350ms total)
T18FC 001:837 JLINK_WriteReg(R6, 0x00000000)  returns 0x00 (0000ms, 1351ms total)
T18FC 001:837 JLINK_WriteReg(R7, 0x00000000)  returns 0x00 (0000ms, 1351ms total)
T18FC 001:837 JLINK_WriteReg(R8, 0x00000000)  returns 0x00 (0000ms, 1351ms total)
T18FC 001:837 JLINK_WriteReg(R9, 0x20000160)  returns 0x00 (0000ms, 1351ms total)
T18FC 001:837 JLINK_WriteReg(R10, 0x00000000)  returns 0x00 (0000ms, 1351ms total)
T18FC 001:837 JLINK_WriteReg(R11, 0x00000000)  returns 0x00 (0001ms, 1351ms total)
T18FC 001:838 JLINK_WriteReg(R12, 0x00000000)  returns 0x00 (0000ms, 1352ms total)
T18FC 001:838 JLINK_WriteReg(R13, 0x20000800)  returns 0x00 (0000ms, 1352ms total)
T18FC 001:838 JLINK_WriteReg(R14, 0x20000001)  returns 0x00 (0000ms, 1352ms total)
T18FC 001:838 JLINK_WriteReg(R15, 0x200000F4)  returns 0x00 (0000ms, 1352ms total)
T18FC 001:838 JLINK_WriteReg(XPSR, 0x01000000)  returns 0x00 (0001ms, 1352ms total)
T18FC 001:839 JLINK_WriteReg(MSP, 0x20000800)  returns 0x00 (0000ms, 1353ms total)
T18FC 001:839 JLINK_WriteReg(PSP, 0x20000800)  returns 0x00 (0000ms, 1353ms total)
T18FC 001:839 JLINK_WriteReg(CFBP, 0x00000000)  returns 0x00 (0000ms, 1353ms total)
T18FC 001:839 JLINK_SetBPEx(Addr = 0x20000000, Type = 0xFFFFFFF2)  returns 0x00000008 (0000ms, 1353ms total)
T18FC 001:839 JLINK_Go() -- CPU_WriteMem(4 bytes @ 0xE0002008) -- CPU_WriteMem(4 bytes @ 0xE000200C) -- CPU_WriteMem(4 bytes @ 0xE0002010) -- CPU_WriteMem(4 bytes @ 0xE0002014) -- CPU_WriteMem(4 bytes @ 0xE0002018) -- CPU_WriteMem(4 bytes @ 0xE000201C) (0011ms, 1353ms total)
T18FC 001:850 JLINK_IsHalted()  returns FALSE (0001ms, 1364ms total)
T18FC 001:901 JLINK_IsHalted() -- CPU_ReadMem(2 bytes @ 0x20000000)  returns TRUE (0011ms, 1364ms total)
T18FC 001:912 JLINK_ReadReg(R15)  returns 0x20000000 (0000ms, 1364ms total)
T18FC 001:912 JLINK_ClrBPEx(BPHandle = 0x00000008)  returns 0x00 (0001ms, 1364ms total)
T18FC 001:913 JLINK_ReadReg(R0)  returns 0x00000000 (0000ms, 1365ms total)
T18FC 001:914 JLINK_WriteMem(0x20000164, 0x0400 Bytes, ...) -- Data:  23 D1 5E E0 22 E0 6F 28 4C D0 08 DC 66 28 22 D0 ... -- CPU_WriteMem(1024 bytes @ 0x20000164)  returns 0x400 (0012ms, 1365ms total)
T18FC 001:926 JLINK_WriteReg(R0, 0x08001000)  returns 0x00 (0001ms, 1377ms total)
T18FC 001:927 JLINK_WriteReg(R1, 0x00000400)  returns 0x00 (0000ms, 1378ms total)
T18FC 001:927 JLINK_WriteReg(R2, 0x20000164)  returns 0x00 (0000ms, 1378ms total)
T18FC 001:927 JLINK_WriteReg(R3, 0x00000000)  returns 0x00 (0000ms, 1378ms total)
T18FC 001:927 JLINK_WriteReg(R4, 0x00000000)  returns 0x00 (0000ms, 1378ms total)
T18FC 001:927 JLINK_WriteReg(R5, 0x00000000)  returns 0x00 (0001ms, 1378ms total)
T18FC 001:928 JLINK_WriteReg(R6, 0x00000000)  returns 0x00 (0000ms, 1379ms total)
T18FC 001:928 JLINK_WriteReg(R7, 0x00000000)  returns 0x00 (0000ms, 1379ms total)
T18FC 001:928 JLINK_WriteReg(R8, 0x00000000)  returns 0x00 (0000ms, 1379ms total)
T18FC 001:928 JLINK_WriteReg(R9, 0x20000160)  returns 0x00 (0000ms, 1379ms total)
T18FC 001:928 JLINK_WriteReg(R10, 0x00000000)  returns 0x00 (0000ms, 1379ms total)
T18FC 001:929 JLINK_WriteReg(R11, 0x00000000)  returns 0x00 (0000ms, 1380ms total)
T18FC 001:929 JLINK_WriteReg(R12, 0x00000000)  returns 0x00 (0000ms, 1380ms total)
T18FC 001:929 JLINK_WriteReg(R13, 0x20000800)  returns 0x00 (0000ms, 1380ms total)
T18FC 001:929 JLINK_WriteReg(R14, 0x20000001)  returns 0x00 (0000ms, 1380ms total)
T18FC 001:929 JLINK_WriteReg(R15, 0x200000F4)  returns 0x00 (0000ms, 1380ms total)
T18FC 001:929 JLINK_WriteReg(XPSR, 0x01000000)  returns 0x00 (0001ms, 1380ms total)
T18FC 001:930 JLINK_WriteReg(MSP, 0x20000800)  returns 0x00 (0000ms, 1381ms total)
T18FC 001:930 JLINK_WriteReg(PSP, 0x20000800)  returns 0x00 (0000ms, 1381ms total)
T18FC 001:930 JLINK_WriteReg(CFBP, 0x00000000)  returns 0x00 (0000ms, 1381ms total)
T18FC 001:930 JLINK_SetBPEx(Addr = 0x20000000, Type = 0xFFFFFFF2)  returns 0x00000009 (0000ms, 1381ms total)
T18FC 001:930 JLINK_Go() -- CPU_WriteMem(4 bytes @ 0xE0002008) -- CPU_WriteMem(4 bytes @ 0xE000200C) -- CPU_WriteMem(4 bytes @ 0xE0002010) -- CPU_WriteMem(4 bytes @ 0xE0002014) -- CPU_WriteMem(4 bytes @ 0xE0002018) -- CPU_WriteMem(4 bytes @ 0xE000201C) (0012ms, 1381ms total)
T18FC 001:942 JLINK_IsHalted()  returns FALSE (0001ms, 1393ms total)
T18FC 001:993 JLINK_IsHalted() -- CPU_ReadMem(2 bytes @ 0x20000000)  returns TRUE (0010ms, 1393ms total)
T18FC 002:003 JLINK_ReadReg(R15)  returns 0x20000000 (0000ms, 1393ms total)
T18FC 002:004 JLINK_ClrBPEx(BPHandle = 0x00000009)  returns 0x00 (0000ms, 1394ms total)
T18FC 002:004 JLINK_ReadReg(R0)  returns 0x00000000 (0000ms, 1394ms total)
T18FC 002:006 JLINK_WriteMem(0x20000164, 0x0400 Bytes, ...) -- Data:  0A 00 00 00 34 00 00 20 10 B5 04 46 0A 48 01 68 ... -- CPU_WriteMem(1024 bytes @ 0x20000164)  returns 0x400 (0011ms, 1394ms total)
T18FC 002:017 JLINK_WriteReg(R0, 0x08001400)  returns 0x00 (0000ms, 1405ms total)
T18FC 002:018 JLINK_WriteReg(R1, 0x00000400)  returns 0x00 (0000ms, 1406ms total)
T18FC 002:018 JLINK_WriteReg(R2, 0x20000164)  returns 0x00 (0000ms, 1406ms total)
T18FC 002:018 JLINK_WriteReg(R3, 0x00000000)  returns 0x00 (0000ms, 1406ms total)
T18FC 002:018 JLINK_WriteReg(R4, 0x00000000)  returns 0x00 (0000ms, 1406ms total)
T18FC 002:018 JLINK_WriteReg(R5, 0x00000000)  returns 0x00 (0000ms, 1406ms total)
T18FC 002:018 JLINK_WriteReg(R6, 0x00000000)  returns 0x00 (0001ms, 1406ms total)
T18FC 002:019 JLINK_WriteReg(R7, 0x00000000)  returns 0x00 (0000ms, 1407ms total)
T18FC 002:019 JLINK_WriteReg(R8, 0x00000000)  returns 0x00 (0000ms, 1407ms total)
T18FC 002:019 JLINK_WriteReg(R9, 0x20000160)  returns 0x00 (0000ms, 1407ms total)
T18FC 002:019 JLINK_WriteReg(R10, 0x00000000)  returns 0x00 (0000ms, 1407ms total)
T18FC 002:019 JLINK_WriteReg(R11, 0x00000000)  returns 0x00 (0001ms, 1407ms total)
T18FC 002:020 JLINK_WriteReg(R12, 0x00000000)  returns 0x00 (0000ms, 1408ms total)
T18FC 002:020 JLINK_WriteReg(R13, 0x20000800)  returns 0x00 (0000ms, 1408ms total)
T18FC 002:020 JLINK_WriteReg(R14, 0x20000001)  returns 0x00 (0000ms, 1408ms total)
T18FC 002:020 JLINK_WriteReg(R15, 0x200000F4)  returns 0x00 (0000ms, 1408ms total)
T18FC 002:020 JLINK_WriteReg(XPSR, 0x01000000)  returns 0x00 (0001ms, 1408ms total)
T18FC 002:021 JLINK_WriteReg(MSP, 0x20000800)  returns 0x00 (0000ms, 1409ms total)
T18FC 002:021 JLINK_WriteReg(PSP, 0x20000800)  returns 0x00 (0000ms, 1409ms total)
T18FC 002:021 JLINK_WriteReg(CFBP, 0x00000000)  returns 0x00 (0000ms, 1409ms total)
T18FC 002:021 JLINK_SetBPEx(Addr = 0x20000000, Type = 0xFFFFFFF2)  returns 0x0000000A (0000ms, 1409ms total)
T18FC 002:022 JLINK_Go() -- CPU_WriteMem(4 bytes @ 0xE0002008) -- CPU_WriteMem(4 bytes @ 0xE000200C) -- CPU_WriteMem(4 bytes @ 0xE0002010) -- CPU_WriteMem(4 bytes @ 0xE0002014) -- CPU_WriteMem(4 bytes @ 0xE0002018) -- CPU_WriteMem(4 bytes @ 0xE000201C) (0009ms, 1410ms total)
T18FC 002:031 JLINK_IsHalted()  returns FALSE (0002ms, 1419ms total)
T18FC 002:084 JLINK_IsHalted() -- CPU_ReadMem(2 bytes @ 0x20000000)  returns TRUE (0010ms, 1419ms total)
T18FC 002:094 JLINK_ReadReg(R15)  returns 0x20000000 (0000ms, 1419ms total)
T18FC 002:095 JLINK_ClrBPEx(BPHandle = 0x0000000A)  returns 0x00 (0000ms, 1420ms total)
T18FC 002:095 JLINK_ReadReg(R0)  returns 0x00000000 (0000ms, 1420ms total)
T18FC 002:096 JLINK_WriteMem(0x20000164, 0x0400 Bytes, ...) -- Data:  70 47 00 00 34 00 00 20 01 49 03 C9 70 47 00 00 ... -- CPU_WriteMem(1024 bytes @ 0x20000164)  returns 0x400 (0012ms, 1420ms total)
T18FC 002:108 JLINK_WriteReg(R0, 0x08001800)  returns 0x00 (0001ms, 1432ms total)
T18FC 002:109 JLINK_WriteReg(R1, 0x00000400)  returns 0x00 (0000ms, 1433ms total)
T18FC 002:109 JLINK_WriteReg(R2, 0x20000164)  returns 0x00 (0000ms, 1433ms total)
T18FC 002:109 JLINK_WriteReg(R3, 0x00000000)  returns 0x00 (0000ms, 1433ms total)
T18FC 002:109 JLINK_WriteReg(R4, 0x00000000)  returns 0x00 (0000ms, 1433ms total)
T18FC 002:109 JLINK_WriteReg(R5, 0x00000000)  returns 0x00 (0001ms, 1433ms total)
T18FC 002:110 JLINK_WriteReg(R6, 0x00000000)  returns 0x00 (0000ms, 1434ms total)
T18FC 002:110 JLINK_WriteReg(R7, 0x00000000)  returns 0x00 (0000ms, 1434ms total)
T18FC 002:110 JLINK_WriteReg(R8, 0x00000000)  returns 0x00 (0000ms, 1434ms total)
T18FC 002:110 JLINK_WriteReg(R9, 0x20000160)  returns 0x00 (0000ms, 1434ms total)
T18FC 002:110 JLINK_WriteReg(R10, 0x00000000)  returns 0x00 (0000ms, 1434ms total)
T18FC 002:111 JLINK_WriteReg(R11, 0x00000000)  returns 0x00 (0000ms, 1435ms total)
T18FC 002:111 JLINK_WriteReg(R12, 0x00000000)  returns 0x00 (0000ms, 1435ms total)
T18FC 002:111 JLINK_WriteReg(R13, 0x20000800)  returns 0x00 (0000ms, 1435ms total)
T18FC 002:111 JLINK_WriteReg(R14, 0x20000001)  returns 0x00 (0000ms, 1435ms total)
T18FC 002:111 JLINK_WriteReg(R15, 0x200000F4)  returns 0x00 (0001ms, 1435ms total)
T18FC 002:112 JLINK_WriteReg(XPSR, 0x01000000)  returns 0x00 (0000ms, 1436ms total)
T18FC 002:112 JLINK_WriteReg(MSP, 0x20000800)  returns 0x00 (0000ms, 1436ms total)
T18FC 002:112 JLINK_WriteReg(PSP, 0x20000800)  returns 0x00 (0000ms, 1436ms total)
T18FC 002:112 JLINK_WriteReg(CFBP, 0x00000000)  returns 0x00 (0000ms, 1436ms total)
T18FC 002:112 JLINK_SetBPEx(Addr = 0x20000000, Type = 0xFFFFFFF2)  returns 0x0000000B (0001ms, 1436ms total)
T18FC 002:113 JLINK_Go() -- CPU_WriteMem(4 bytes @ 0xE0002008) -- CPU_WriteMem(4 bytes @ 0xE000200C) -- CPU_WriteMem(4 bytes @ 0xE0002010) -- CPU_WriteMem(4 bytes @ 0xE0002014) -- CPU_WriteMem(4 bytes @ 0xE0002018) -- CPU_WriteMem(4 bytes @ 0xE000201C) (0009ms, 1437ms total)
T18FC 002:122 JLINK_IsHalted()  returns FALSE (0001ms, 1446ms total)
T18FC 002:173 JLINK_IsHalted() -- CPU_ReadMem(2 bytes @ 0x20000000)  returns TRUE (0010ms, 1446ms total)
T18FC 002:183 JLINK_ReadReg(R15)  returns 0x20000000 (0000ms, 1446ms total)
T18FC 002:183 JLINK_ClrBPEx(BPHandle = 0x0000000B)  returns 0x00 (0001ms, 1446ms total)
T18FC 002:184 JLINK_ReadReg(R0)  returns 0x00000000 (0000ms, 1447ms total)
T18FC 002:185 JLINK_WriteMem(0x20000164, 0x0400 Bytes, ...) -- Data:  70 47 70 47 04 4A 00 29 91 69 01 D0 01 43 00 E0 ... -- CPU_WriteMem(1024 bytes @ 0x20000164)  returns 0x400 (0011ms, 1447ms total)
T18FC 002:196 JLINK_WriteReg(R0, 0x08001C00)  returns 0x00 (0001ms, 1458ms total)
T18FC 002:197 JLINK_WriteReg(R1, 0x00000400)  returns 0x00 (0000ms, 1459ms total)
T18FC 002:197 JLINK_WriteReg(R2, 0x20000164)  returns 0x00 (0000ms, 1459ms total)
T18FC 002:197 JLINK_WriteReg(R3, 0x00000000)  returns 0x00 (0000ms, 1459ms total)
T18FC 002:197 JLINK_WriteReg(R4, 0x00000000)  returns 0x00 (0000ms, 1459ms total)
T18FC 002:197 JLINK_WriteReg(R5, 0x00000000)  returns 0x00 (0001ms, 1459ms total)
T18FC 002:198 JLINK_WriteReg(R6, 0x00000000)  returns 0x00 (0000ms, 1460ms total)
T18FC 002:198 JLINK_WriteReg(R7, 0x00000000)  returns 0x00 (0000ms, 1460ms total)
T18FC 002:198 JLINK_WriteReg(R8, 0x00000000)  returns 0x00 (0000ms, 1460ms total)
T18FC 002:198 JLINK_WriteReg(R9, 0x20000160)  returns 0x00 (0000ms, 1460ms total)
T18FC 002:198 JLINK_WriteReg(R10, 0x00000000)  returns 0x00 (0001ms, 1460ms total)
T18FC 002:199 JLINK_WriteReg(R11, 0x00000000)  returns 0x00 (0000ms, 1461ms total)
T18FC 002:199 JLINK_WriteReg(R12, 0x00000000)  returns 0x00 (0000ms, 1461ms total)
T18FC 002:199 JLINK_WriteReg(R13, 0x20000800)  returns 0x00 (0000ms, 1461ms total)
T18FC 002:199 JLINK_WriteReg(R14, 0x20000001)  returns 0x00 (0000ms, 1461ms total)
T18FC 002:199 JLINK_WriteReg(R15, 0x200000F4)  returns 0x00 (0001ms, 1461ms total)
T18FC 002:200 JLINK_WriteReg(XPSR, 0x01000000)  returns 0x00 (0000ms, 1462ms total)
T18FC 002:200 JLINK_WriteReg(MSP, 0x20000800)  returns 0x00 (0000ms, 1462ms total)
T18FC 002:200 JLINK_WriteReg(PSP, 0x20000800)  returns 0x00 (0000ms, 1462ms total)
T18FC 002:200 JLINK_WriteReg(CFBP, 0x00000000)  returns 0x00 (0000ms, 1462ms total)
T18FC 002:200 JLINK_SetBPEx(Addr = 0x20000000, Type = 0xFFFFFFF2)  returns 0x0000000C (0001ms, 1462ms total)
T18FC 002:201 JLINK_Go() -- CPU_WriteMem(4 bytes @ 0xE0002008) -- CPU_WriteMem(4 bytes @ 0xE000200C) -- CPU_WriteMem(4 bytes @ 0xE0002010) -- CPU_WriteMem(4 bytes @ 0xE0002014) -- CPU_WriteMem(4 bytes @ 0xE0002018) -- CPU_WriteMem(4 bytes @ 0xE000201C) (0010ms, 1463ms total)
T18FC 002:211 JLINK_IsHalted()  returns FALSE (0001ms, 1473ms total)
T18FC 002:262 JLINK_IsHalted() -- CPU_ReadMem(2 bytes @ 0x20000000)  returns TRUE (0010ms, 1473ms total)
T18FC 002:272 JLINK_ReadReg(R15)  returns 0x20000000 (0000ms, 1473ms total)
T18FC 002:272 JLINK_ClrBPEx(BPHandle = 0x0000000C)  returns 0x00 (0001ms, 1473ms total)
T18FC 002:273 JLINK_ReadReg(R0)  returns 0x00000000 (0000ms, 1474ms total)
T18FC 002:274 JLINK_WriteMem(0x20000164, 0x0400 Bytes, ...) -- Data:  00 E0 0C A0 02 46 0E A1 05 48 00 68 00 F0 82 FE ... -- CPU_WriteMem(1024 bytes @ 0x20000164)  returns 0x400 (0011ms, 1474ms total)
T18FC 002:285 JLINK_WriteReg(R0, 0x08002000)  returns 0x00 (0000ms, 1485ms total)
T18FC 002:286 JLINK_WriteReg(R1, 0x00000400)  returns 0x00 (0000ms, 1486ms total)
T18FC 002:286 JLINK_WriteReg(R2, 0x20000164)  returns 0x00 (0000ms, 1486ms total)
T18FC 002:286 JLINK_WriteReg(R3, 0x00000000)  returns 0x00 (0000ms, 1486ms total)
T18FC 002:286 JLINK_WriteReg(R4, 0x00000000)  returns 0x00 (0000ms, 1486ms total)
T18FC 002:286 JLINK_WriteReg(R5, 0x00000000)  returns 0x00 (0000ms, 1486ms total)
T18FC 002:287 JLINK_WriteReg(R6, 0x00000000)  returns 0x00 (0000ms, 1487ms total)
T18FC 002:287 JLINK_WriteReg(R7, 0x00000000)  returns 0x00 (0000ms, 1487ms total)
T18FC 002:287 JLINK_WriteReg(R8, 0x00000000)  returns 0x00 (0000ms, 1487ms total)
T18FC 002:287 JLINK_WriteReg(R9, 0x20000160)  returns 0x00 (0000ms, 1487ms total)
T18FC 002:287 JLINK_WriteReg(R10, 0x00000000)  returns 0x00 (0000ms, 1487ms total)
T18FC 002:287 JLINK_WriteReg(R11, 0x00000000)  returns 0x00 (0001ms, 1487ms total)
T18FC 002:288 JLINK_WriteReg(R12, 0x00000000)  returns 0x00 (0000ms, 1488ms total)
T18FC 002:288 JLINK_WriteReg(R13, 0x20000800)  returns 0x00 (0000ms, 1488ms total)
T18FC 002:288 JLINK_WriteReg(R14, 0x20000001)  returns 0x00 (0000ms, 1488ms total)
T18FC 002:288 JLINK_WriteReg(R15, 0x200000F4)  returns 0x00 (0000ms, 1488ms total)
T18FC 002:288 JLINK_WriteReg(XPSR, 0x01000000)  returns 0x00 (0001ms, 1488ms total)
T18FC 002:289 JLINK_WriteReg(MSP, 0x20000800)  returns 0x00 (0000ms, 1489ms total)
T18FC 002:289 JLINK_WriteReg(PSP, 0x20000800)  returns 0x00 (0000ms, 1489ms total)
T18FC 002:289 JLINK_WriteReg(CFBP, 0x00000000)  returns 0x00 (0000ms, 1489ms total)
T18FC 002:289 JLINK_SetBPEx(Addr = 0x20000000, Type = 0xFFFFFFF2)  returns 0x0000000D (0000ms, 1489ms total)
T18FC 002:289 JLINK_Go() -- CPU_WriteMem(4 bytes @ 0xE0002008) -- CPU_WriteMem(4 bytes @ 0xE000200C) -- CPU_WriteMem(4 bytes @ 0xE0002010) -- CPU_WriteMem(4 bytes @ 0xE0002014) -- CPU_WriteMem(4 bytes @ 0xE0002018) -- CPU_WriteMem(4 bytes @ 0xE000201C) (0010ms, 1489ms total)
T18FC 002:299 JLINK_IsHalted()  returns FALSE (0001ms, 1499ms total)
T18FC 002:350 JLINK_IsHalted() -- CPU_ReadMem(2 bytes @ 0x20000000)  returns TRUE (0010ms, 1499ms total)
T18FC 002:360 JLINK_ReadReg(R15)  returns 0x20000000 (0000ms, 1499ms total)
T18FC 002:360 JLINK_ClrBPEx(BPHandle = 0x0000000D)  returns 0x00 (0000ms, 1499ms total)
T18FC 002:361 JLINK_ReadReg(R0)  returns 0x00000000 (0000ms, 1500ms total)
T18FC 002:361 JLINK_WriteMem(0x20000164, 0x0400 Bytes, ...) -- Data:  29 0D 0A 00 B0 00 00 20 B8 00 00 20 10 B5 11 48 ... -- CPU_WriteMem(1024 bytes @ 0x20000164)  returns 0x400 (0012ms, 1500ms total)
T18FC 002:373 JLINK_WriteReg(R0, 0x08002400)  returns 0x00 (0000ms, 1512ms total)
T18FC 002:373 JLINK_WriteReg(R1, 0x00000400)  returns 0x00 (0000ms, 1512ms total)
T18FC 002:373 JLINK_WriteReg(R2, 0x20000164)  returns 0x00 (0000ms, 1512ms total)
T18FC 002:374 JLINK_WriteReg(R3, 0x00000000)  returns 0x00 (0000ms, 1513ms total)
T18FC 002:374 JLINK_WriteReg(R4, 0x00000000)  returns 0x00 (0000ms, 1513ms total)
T18FC 002:374 JLINK_WriteReg(R5, 0x00000000)  returns 0x00 (0000ms, 1513ms total)
T18FC 002:374 JLINK_WriteReg(R6, 0x00000000)  returns 0x00 (0000ms, 1513ms total)
T18FC 002:374 JLINK_WriteReg(R7, 0x00000000)  returns 0x00 (0000ms, 1513ms total)
T18FC 002:374 JLINK_WriteReg(R8, 0x00000000)  returns 0x00 (0000ms, 1513ms total)
T18FC 002:374 JLINK_WriteReg(R9, 0x20000160)  returns 0x00 (0000ms, 1513ms total)
T18FC 002:374 JLINK_WriteReg(R10, 0x00000000)  returns 0x00 (0000ms, 1513ms total)
T18FC 002:374 JLINK_WriteReg(R11, 0x00000000)  returns 0x00 (0000ms, 1513ms total)
T18FC 002:374 JLINK_WriteReg(R12, 0x00000000)  returns 0x00 (0000ms, 1513ms total)
T18FC 002:374 JLINK_WriteReg(R13, 0x20000800)  returns 0x00 (0000ms, 1513ms total)
T18FC 002:374 JLINK_WriteReg(R14, 0x20000001)  returns 0x00 (0001ms, 1513ms total)
T18FC 002:375 JLINK_WriteReg(R15, 0x200000F4)  returns 0x00 (0000ms, 1514ms total)
T18FC 002:375 JLINK_WriteReg(XPSR, 0x01000000)  returns 0x00 (0000ms, 1514ms total)
T18FC 002:375 JLINK_WriteReg(MSP, 0x20000800)  returns 0x00 (0000ms, 1514ms total)
T18FC 002:375 JLINK_WriteReg(PSP, 0x20000800)  returns 0x00 (0000ms, 1514ms total)
T18FC 002:375 JLINK_WriteReg(CFBP, 0x00000000)  returns 0x00 (0000ms, 1514ms total)
T18FC 002:375 JLINK_SetBPEx(Addr = 0x20000000, Type = 0xFFFFFFF2)  returns 0x0000000E (0000ms, 1514ms total)
T18FC 002:375 JLINK_Go() -- CPU_WriteMem(4 bytes @ 0xE0002008) -- CPU_WriteMem(4 bytes @ 0xE000200C) -- CPU_WriteMem(4 bytes @ 0xE0002010) -- CPU_WriteMem(4 bytes @ 0xE0002014) -- CPU_WriteMem(4 bytes @ 0xE0002018) -- CPU_WriteMem(4 bytes @ 0xE000201C) (0009ms, 1514ms total)
T18FC 002:384 JLINK_IsHalted()  returns FALSE (0001ms, 1523ms total)
T18FC 002:435 JLINK_IsHalted() -- CPU_ReadMem(2 bytes @ 0x20000000)  returns TRUE (0010ms, 1523ms total)
T18FC 002:445 JLINK_ReadReg(R15)  returns 0x20000000 (0000ms, 1523ms total)
T18FC 002:445 JLINK_ClrBPEx(BPHandle = 0x0000000E)  returns 0x00 (0001ms, 1523ms total)
T18FC 002:446 JLINK_ReadReg(R0)  returns 0x00000000 (0000ms, 1524ms total)
T18FC 002:447 JLINK_WriteMem(0x20000164, 0x0400 Bytes, ...) -- Data:  01 00 0E 4B 0A 46 0E A1 18 60 0F 48 00 68 00 F0 ... -- CPU_WriteMem(1024 bytes @ 0x20000164)  returns 0x400 (0011ms, 1524ms total)
T18FC 002:458 JLINK_WriteReg(R0, 0x08002800)  returns 0x00 (0000ms, 1535ms total)
T18FC 002:459 JLINK_WriteReg(R1, 0x00000400)  returns 0x00 (0000ms, 1535ms total)
T18FC 002:459 JLINK_WriteReg(R2, 0x20000164)  returns 0x00 (0000ms, 1535ms total)
T18FC 002:459 JLINK_WriteReg(R3, 0x00000000)  returns 0x00 (0000ms, 1535ms total)
T18FC 002:459 JLINK_WriteReg(R4, 0x00000000)  returns 0x00 (0000ms, 1535ms total)
T18FC 002:459 JLINK_WriteReg(R5, 0x00000000)  returns 0x00 (0000ms, 1535ms total)
T18FC 002:459 JLINK_WriteReg(R6, 0x00000000)  returns 0x00 (0001ms, 1535ms total)
T18FC 002:460 JLINK_WriteReg(R7, 0x00000000)  returns 0x00 (0000ms, 1536ms total)
T18FC 002:460 JLINK_WriteReg(R8, 0x00000000)  returns 0x00 (0000ms, 1536ms total)
T18FC 002:460 JLINK_WriteReg(R9, 0x20000160)  returns 0x00 (0000ms, 1536ms total)
T18FC 002:460 JLINK_WriteReg(R10, 0x00000000)  returns 0x00 (0000ms, 1536ms total)
T18FC 002:461 JLINK_WriteReg(R11, 0x00000000)  returns 0x00 (0000ms, 1537ms total)
T18FC 002:461 JLINK_WriteReg(R12, 0x00000000)  returns 0x00 (0000ms, 1537ms total)
T18FC 002:461 JLINK_WriteReg(R13, 0x20000800)  returns 0x00 (0000ms, 1537ms total)
T18FC 002:461 JLINK_WriteReg(R14, 0x20000001)  returns 0x00 (0000ms, 1537ms total)
T18FC 002:461 JLINK_WriteReg(R15, 0x200000F4)  returns 0x00 (0000ms, 1537ms total)
T18FC 002:461 JLINK_WriteReg(XPSR, 0x01000000)  returns 0x00 (0001ms, 1537ms total)
T18FC 002:462 JLINK_WriteReg(MSP, 0x20000800)  returns 0x00 (0000ms, 1538ms total)
T18FC 002:462 JLINK_WriteReg(PSP, 0x20000800)  returns 0x00 (0000ms, 1538ms total)
T18FC 002:462 JLINK_WriteReg(CFBP, 0x00000000)  returns 0x00 (0000ms, 1538ms total)
T18FC 002:462 JLINK_SetBPEx(Addr = 0x20000000, Type = 0xFFFFFFF2)  returns 0x0000000F (0000ms, 1538ms total)
T18FC 002:462 JLINK_Go() -- CPU_WriteMem(4 bytes @ 0xE0002008) -- CPU_WriteMem(4 bytes @ 0xE000200C) -- CPU_WriteMem(4 bytes @ 0xE0002010) -- CPU_WriteMem(4 bytes @ 0xE0002014) -- CPU_WriteMem(4 bytes @ 0xE0002018) -- CPU_WriteMem(4 bytes @ 0xE000201C) (0010ms, 1538ms total)
T18FC 002:472 JLINK_IsHalted()  returns FALSE (0001ms, 1548ms total)
T18FC 002:523 JLINK_IsHalted() -- CPU_ReadMem(2 bytes @ 0x20000000)  returns TRUE (0011ms, 1548ms total)
T18FC 002:534 JLINK_ReadReg(R15)  returns 0x20000000 (0000ms, 1548ms total)
T18FC 002:534 JLINK_ClrBPEx(BPHandle = 0x0000000F)  returns 0x00 (0001ms, 1548ms total)
T18FC 002:535 JLINK_ReadReg(R0)  returns 0x00000000 (0000ms, 1549ms total)
T18FC 002:536 JLINK_WriteMem(0x20000164, 0x0400 Bytes, ...) -- Data:  05 48 00 68 00 F0 86 F8 10 BD 00 00 54 00 00 20 ... -- CPU_WriteMem(1024 bytes @ 0x20000164)  returns 0x400 (0011ms, 1549ms total)
T18FC 002:547 JLINK_WriteReg(R0, 0x08002C00)  returns 0x00 (0000ms, 1560ms total)
T18FC 002:547 JLINK_WriteReg(R1, 0x00000400)  returns 0x00 (0001ms, 1560ms total)
T18FC 002:548 JLINK_WriteReg(R2, 0x20000164)  returns 0x00 (0000ms, 1561ms total)
T18FC 002:548 JLINK_WriteReg(R3, 0x00000000)  returns 0x00 (0000ms, 1561ms total)
T18FC 002:548 JLINK_WriteReg(R4, 0x00000000)  returns 0x00 (0000ms, 1561ms total)
T18FC 002:548 JLINK_WriteReg(R5, 0x00000000)  returns 0x00 (0000ms, 1561ms total)
T18FC 002:548 JLINK_WriteReg(R6, 0x00000000)  returns 0x00 (0001ms, 1561ms total)
T18FC 002:549 JLINK_WriteReg(R7, 0x00000000)  returns 0x00 (0000ms, 1562ms total)
T18FC 002:549 JLINK_WriteReg(R8, 0x00000000)  returns 0x00 (0000ms, 1562ms total)
T18FC 002:549 JLINK_WriteReg(R9, 0x20000160)  returns 0x00 (0000ms, 1562ms total)
T18FC 002:549 JLINK_WriteReg(R10, 0x00000000)  returns 0x00 (0000ms, 1562ms total)
T18FC 002:549 JLINK_WriteReg(R11, 0x00000000)  returns 0x00 (0001ms, 1562ms total)
T18FC 002:550 JLINK_WriteReg(R12, 0x00000000)  returns 0x00 (0000ms, 1563ms total)
T18FC 002:550 JLINK_WriteReg(R13, 0x20000800)  returns 0x00 (0000ms, 1563ms total)
T18FC 002:550 JLINK_WriteReg(R14, 0x20000001)  returns 0x00 (0000ms, 1563ms total)
T18FC 002:550 JLINK_WriteReg(R15, 0x200000F4)  returns 0x00 (0000ms, 1563ms total)
T18FC 002:550 JLINK_WriteReg(XPSR, 0x01000000)  returns 0x00 (0001ms, 1563ms total)
T18FC 002:551 JLINK_WriteReg(MSP, 0x20000800)  returns 0x00 (0000ms, 1564ms total)
T18FC 002:551 JLINK_WriteReg(PSP, 0x20000800)  returns 0x00 (0000ms, 1564ms total)
T18FC 002:551 JLINK_WriteReg(CFBP, 0x00000000)  returns 0x00 (0000ms, 1564ms total)
T18FC 002:551 JLINK_SetBPEx(Addr = 0x20000000, Type = 0xFFFFFFF2)  returns 0x00000010 (0000ms, 1564ms total)
T18FC 002:551 JLINK_Go() -- CPU_WriteMem(4 bytes @ 0xE0002008) -- CPU_WriteMem(4 bytes @ 0xE000200C) -- CPU_WriteMem(4 bytes @ 0xE0002010) -- CPU_WriteMem(4 bytes @ 0xE0002014) -- CPU_WriteMem(4 bytes @ 0xE0002018) -- CPU_WriteMem(4 bytes @ 0xE000201C) (0010ms, 1564ms total)
T18FC 002:561 JLINK_IsHalted()  returns FALSE (0001ms, 1574ms total)
T18FC 002:612 JLINK_IsHalted() -- CPU_ReadMem(2 bytes @ 0x20000000)  returns TRUE (0010ms, 1574ms total)
T18FC 002:622 JLINK_ReadReg(R15)  returns 0x20000000 (0000ms, 1574ms total)
T18FC 002:622 JLINK_ClrBPEx(BPHandle = 0x00000010)  returns 0x00 (0001ms, 1574ms total)
T18FC 002:623 JLINK_ReadReg(R0)  returns 0x00000000 (0000ms, 1575ms total)
T18FC 002:627 JLINK_WriteMem(0x20000164, 0x0400 Bytes, ...) -- Data:  3D 02 FD F7 4C FE 82 46 8B 46 38 46 FE F7 16 F9 ... -- CPU_WriteMem(1024 bytes @ 0x20000164)  returns 0x400 (0012ms, 1575ms total)
T18FC 002:639 JLINK_WriteReg(R0, 0x08003000)  returns 0x00 (0000ms, 1587ms total)
T18FC 002:639 JLINK_WriteReg(R1, 0x00000400)  returns 0x00 (0001ms, 1587ms total)
T18FC 002:640 JLINK_WriteReg(R2, 0x20000164)  returns 0x00 (0000ms, 1588ms total)
T18FC 002:640 JLINK_WriteReg(R3, 0x00000000)  returns 0x00 (0000ms, 1588ms total)
T18FC 002:640 JLINK_WriteReg(R4, 0x00000000)  returns 0x00 (0000ms, 1588ms total)
T18FC 002:640 JLINK_WriteReg(R5, 0x00000000)  returns 0x00 (0000ms, 1588ms total)
